
T0B30 000:268 SEGGER J-Link V5.12k Log File (0001ms, 0261ms total)
T0B30 000:268 DLL Compiled: Jul 19 2016 18:27:19 (0001ms, 0261ms total)
T0B30 000:268 Logging started @ 2024-03-21 20:57 (0001ms, 0261ms total)
T0B30 000:269 JLINK_SetWarnOutHandler(...) (0000ms, 0261ms total)
T0B30 000:269 JLINK_OpenEx(...)
Firmware: J-Link ARM-OB STM32 compiled Aug 22 2012 19:52:04
Hardware: V7.00
S/N: 20090928
Feature(s): RDI,FlashDL,FlashBP,JFlash,GDBFull  returns O.K. (0259ms, 0520ms total)
T0B30 000:529 JLINK_SetErrorOutHandler(...) (0000ms, 0520ms total)
T0B30 000:529 JLINK_ExecCommand("ProjectFile = "C:\Users\29232\Desktop\STM32\Project\4_1 OLEDÏÔÊ¾ÆÁ\JLinkSettings.ini"", ...)  returns 0x00 (0002ms, 0522ms total)
T0B30 000:531 JLINK_ExecCommand("Device = STM32F103C8", ...)Device "STM32F103C8" selected.  returns 0x00 (0000ms, 0522ms total)
T0B30 000:531 JLINK_ExecCommand("DisableConnectionTimeout", ...)  returns 0x01 (0000ms, 0522ms total)
T0B30 000:531 JLINK_GetHardwareVersion()  returns 0x11170 (0000ms, 0522ms total)
T0B30 000:531 JLINK_GetDLLVersion()  returns 51211 (0000ms, 0522ms total)
T0B30 000:531 JLINK_GetFirmwareString(...) (0000ms, 0522ms total)
T0B30 000:534 JLINK_GetDLLVersion()  returns 51211 (0000ms, 0522ms total)
T0B30 000:534 JLINK_GetCompileDateTime() (0000ms, 0522ms total)
T0B30 000:535 JLINK_GetFirmwareString(...) (0000ms, 0522ms total)
T0B30 000:535 JLINK_GetHardwareVersion()  returns 0x11170 (0000ms, 0522ms total)
T0B30 000:536 JLINK_TIF_Select(JLINKARM_TIF_SWD)  returns 0x00 (0000ms, 0522ms total)
T0B30 000:536 JLINK_SetSpeed(20000) (0000ms, 0522ms total)
T0B30 000:536 JLINK_GetId() >0x108 TIF>Found SWD-DP with ID 0x1BA01477 >0x0D TIF> >0x28 TIF> >0x0D TIF> >0x28 TIF> >0x0D TIF> >0x28 TIF> >0x0D TIF> >0x28 TIF> >0x0D TIF> >0x21 TIF> >0x0D TIF> >0x28 TIF> >0x0D TIF> >0x28 TIF> >0x0D TIF> >0x28 TIF> >0x0D TIF> >0x21 TIF> >0x0D TIF> >0x21 TIF> >0x0D TIF> >0x28 TIF> >0x0D TIF> >0x21 TIF> >0x0D TIF> >0x21 TIF> >0x0D TIF> >0x28 TIF> >0x0D TIF> >0x21 TIF> >0x0D TIF> >0x21 TIF> >0x0D TIF> >0x28 TIF> >0x0D TIF> >0x21 TIF> >0x0D TIF> >0x21 TIF> >0x0D TIF>
 >0x28 TIF> >0x0D TIF> >0x21 TIF> >0x0D TIF> >0x21 TIF> >0x0D TIF> >0x28 TIF> >0x0D TIF> >0x21 TIF> >0x0D TIF> >0x21 TIF> >0x108 TIF>Found SWD-DP with ID 0x1BA01477 >0x0D TIF> >0x28 TIF> >0x0D TIF> >0x28 TIF> >0x0D TIF> >0x28 TIF> >0x0D TIF> >0x28 TIF> >0x0D TIF> >0x21 TIF> >0x0D TIF> >0x28 TIF> >0x0D TIF> >0x28 TIF> >0x0D TIF> >0x21 TIF> >0x0D TIF> >0x21 TIF> >0x0D TIF> >0x21 TIF> >0x0D TIF> >0x28 TIF> >0x0D TIF> >0x28 TIF> >0x0D TIF> >0x28 TIF> >0x0D TIF> >0x21 TIF> >0x0D TIF> >0x21 TIF> >0x0D TIF>
 >0x28 TIF> >0x0D TIF> >0x21 TIF> >0x0D TIF> >0x21 TIF>Found Cortex-M3 r1p1, Little endian. -- CPU_ReadMem(4 bytes @ 0xE000EDF0) -- CPU_ReadMem(4 bytes @ 0xE0002000)FPUnit: 6 code (BP) slots and 2 literal slots -- CPU_ReadMem(4 bytes @ 0xE000EDFC) -- CPU_ReadMem(4 bytes @ 0xE0001000) -- CPU_WriteMem(4 bytes @ 0xE0001000) -- CPU_ReadMem(4 bytes @ 0xE000ED88) -- CPU_WriteMem(4 bytes @ 0xE000ED88) -- CPU_ReadMem(4 bytes @ 0xE000ED88) -- CPU_WriteMem(4 bytes @ 0xE000ED88)CoreSight components:
ROMTbl 0 @ E00FF000 -- CPU_ReadMem(16 bytes @ 0xE00FF000) -- CPU_ReadMem(16 bytes @ 0xE000EFF0) -- CPU_ReadMem(16 bytes @ 0xE000EFE0)ROMTbl 0 [0]: FFF0F000, CID: B105E00D, PID: 001BB000 SCS -- CPU_ReadMem(16 bytes @ 0xE0001FF0) -- CPU_ReadMem(16 bytes @ 0xE0001FE0)ROMTbl 0 [1]: FFF02000, CID: B105E00D, PID: 001BB002 DWT -- CPU_ReadMem(16 bytes @ 0xE0002FF0) -- CPU_ReadMem(16 bytes @ 0xE0002FE0)ROMTbl 0 [2]: FFF03000, CID: B105E00D, PID: 000BB003 FPB -- CPU_ReadMem(16 bytes @ 0xE0000FF0)
 -- CPU_ReadMem(16 bytes @ 0xE0000FE0)ROMTbl 0 [3]: FFF01000, CID: B105E00D, PID: 001BB001 ITM -- CPU_ReadMem(16 bytes @ 0xE00FF010) -- CPU_ReadMem(16 bytes @ 0xE0040FF0) -- CPU_ReadMem(16 bytes @ 0xE0040FE0)ROMTbl 0 [4]: FFF41000, CID: B105900D, PID: 001BB923 TPIU-Lite >0x0D TIF> >0x21 TIF>  returns 0x1BA01477 (0036ms, 0558ms total)
T0B30 000:572 JLINK_GetDLLVersion()  returns 51211 (0001ms, 0559ms total)
T0B30 000:573 JLINK_CORE_GetFound()  returns 0x30000FF (0000ms, 0559ms total)
T0B30 000:573 JLINK_GetDebugInfo(0x100) -- Value=0xE00FF000  returns 0x00 (0000ms, 0559ms total)
T0B30 000:573 JLINK_ReadMem (0xE00FF000, 0x0020 Bytes, ...) -- CPU is running -- CPU_ReadMem(32 bytes @ 0xE00FF000) - Data: 03 F0 F0 FF 03 20 F0 FF 03 30 F0 FF 03 10 F0 FF ...  returns 0x00 (0001ms, 0560ms total)
T0B30 000:574 JLINK_ReadMem (0xE000EFF0, 0x0010 Bytes, ...) -- CPU is running -- CPU_ReadMem(16 bytes @ 0xE000EFF0) - Data: 0D 00 00 00 E0 00 00 00 05 00 00 00 B1 00 00 00  returns 0x00 (0001ms, 0561ms total)
T0B30 000:575 JLINK_ReadMem (0xE000EFD0, 0x0020 Bytes, ...) -- CPU is running -- CPU_ReadMem(32 bytes @ 0xE000EFD0) - Data: 04 00 00 00 00 00 00 00 00 00 00 00 00 00 00 00 ...  returns 0x00 (0001ms, 0562ms total)
T0B30 000:576 JLINK_ReadMem (0xE0001FF0, 0x0010 Bytes, ...) -- CPU is running -- CPU_ReadMem(16 bytes @ 0xE0001FF0) - Data: 0D 00 00 00 E0 00 00 00 05 00 00 00 B1 00 00 00  returns 0x00 (0000ms, 0562ms total)
T0B30 000:576 JLINK_ReadMem (0xE0001FD0, 0x0020 Bytes, ...) -- CPU is running -- CPU_ReadMem(32 bytes @ 0xE0001FD0) - Data: 04 00 00 00 00 00 00 00 00 00 00 00 00 00 00 00 ...  returns 0x00 (0001ms, 0563ms total)
T0B30 000:577 JLINK_ReadMem (0xE0002FF0, 0x0010 Bytes, ...) -- CPU is running -- CPU_ReadMem(16 bytes @ 0xE0002FF0) - Data: 0D 00 00 00 E0 00 00 00 05 00 00 00 B1 00 00 00  returns 0x00 (0001ms, 0564ms total)
T0B30 000:578 JLINK_ReadMem (0xE0002FD0, 0x0020 Bytes, ...) -- CPU is running -- CPU_ReadMem(32 bytes @ 0xE0002FD0) - Data: 04 00 00 00 00 00 00 00 00 00 00 00 00 00 00 00 ...  returns 0x00 (0001ms, 0565ms total)
T0B30 000:579 JLINK_ReadMem (0xE0000FF0, 0x0010 Bytes, ...) -- CPU is running -- CPU_ReadMem(16 bytes @ 0xE0000FF0) - Data: 0D 00 00 00 E0 00 00 00 05 00 00 00 B1 00 00 00  returns 0x00 (0000ms, 0565ms total)
T0B30 000:579 JLINK_ReadMem (0xE0000FD0, 0x0020 Bytes, ...) -- CPU is running -- CPU_ReadMem(32 bytes @ 0xE0000FD0) - Data: 04 00 00 00 00 00 00 00 00 00 00 00 00 00 00 00 ...  returns 0x00 (0002ms, 0567ms total)
T0B30 000:581 JLINK_ReadMem (0xE0040FF0, 0x0010 Bytes, ...) -- CPU is running -- CPU_ReadMem(16 bytes @ 0xE0040FF0) - Data: 0D 00 00 00 90 00 00 00 05 00 00 00 B1 00 00 00  returns 0x00 (0000ms, 0567ms total)
T0B30 000:581 JLINK_ReadMem (0xE0040FD0, 0x0020 Bytes, ...) -- CPU is running -- CPU_ReadMem(32 bytes @ 0xE0040FD0) - Data: 04 00 00 00 00 00 00 00 00 00 00 00 00 00 00 00 ...  returns 0x00 (0001ms, 0568ms total)
T0B30 000:582 JLINK_ReadMemU32(0xE000ED00, 0x0001 Items, ...) -- CPU is running -- CPU_ReadMem(4 bytes @ 0xE000ED00) - Data: 31 C2 1F 41  returns 0x01 (0000ms, 0568ms total)
T0B30 000:582 JLINK_SetResetType(JLINKARM_RESET_TYPE_NORMAL)  returns JLINKARM_RESET_TYPE_NORMAL (0000ms, 0568ms total)
T0B30 000:582 JLINK_Reset() -- CPU is running -- CPU_WriteMem(4 bytes @ 0xE000EDF0) -- CPU is running -- CPU_WriteMem(4 bytes @ 0xE000EDFC) >0x35 TIF> -- CPU is running -- CPU_WriteMem(4 bytes @ 0xE000ED0C) -- CPU is running -- CPU_ReadMem(4 bytes @ 0xE000EDF0) -- CPU is running -- CPU_ReadMem(4 bytes @ 0xE000EDF0) -- CPU is running -- CPU_WriteMem(4 bytes @ 0xE000EDF0) -- CPU is running -- CPU_WriteMem(4 bytes @ 0xE000EDFC) -- CPU is running -- CPU_ReadMem(4 bytes @ 0xE000EDF0)
 -- CPU_WriteMem(4 bytes @ 0xE0002000) -- CPU_ReadMem(4 bytes @ 0xE000EDFC) -- CPU_ReadMem(4 bytes @ 0xE0001000) (0017ms, 0585ms total)
T0B30 000:599 JLINK_ReadReg(R15 (PC))  returns 0x0800016C (0000ms, 0585ms total)
T0B30 000:599 JLINK_ReadReg(XPSR)  returns 0x01000000 (0000ms, 0585ms total)
T0B30 000:599 JLINK_Halt()  returns 0x00 (0000ms, 0585ms total)
T0B30 000:599 JLINK_IsHalted()  returns TRUE (0000ms, 0585ms total)
T0B30 000:599 JLINK_ReadMemU32(0xE000EDF0, 0x0001 Items, ...) -- CPU_ReadMem(4 bytes @ 0xE000EDF0) - Data: 03 00 03 00  returns 0x01 (0002ms, 0587ms total)
T0B30 000:601 JLINK_WriteU32(0xE000EDF0, 0xA05F0003) -- CPU_WriteMem(4 bytes @ 0xE000EDF0)  returns 0x00 (0000ms, 0587ms total)
T0B30 000:601 JLINK_WriteU32(0xE000EDFC, 0x01000000) -- CPU_WriteMem(4 bytes @ 0xE000EDFC)  returns 0x00 (0001ms, 0588ms total)
T0B30 000:602 JLINK_GetHWStatus(...)  returns 0x00 (0001ms, 0589ms total)
T0B30 000:603 JLINK_GetNumBPUnits(Type = 0xFFFFFF00)  returns 0x06 (0000ms, 0589ms total)
T0B30 000:603 JLINK_GetNumBPUnits(Type = 0xF0)  returns 0x2000 (0000ms, 0589ms total)
T0B30 000:603 JLINK_GetNumWPUnits()  returns 0x04 (0000ms, 0589ms total)
T0B30 000:603 JLINK_GetSpeed()  returns 0xFA0 (0000ms, 0589ms total)
T0B30 000:603 JLINK_ReadMemU32(0xE000E004, 0x0001 Items, ...) -- CPU_ReadMem(4 bytes @ 0xE000E004) - Data: 01 00 00 00  returns 0x01 (0001ms, 0590ms total)
T0B30 000:604 JLINK_ReadMemU32(0xE000E004, 0x0001 Items, ...) -- CPU_ReadMem(4 bytes @ 0xE000E004) - Data: 01 00 00 00  returns 0x01 (0000ms, 0590ms total)
T0B30 000:604 JLINK_WriteMem(0xE0001000, 0x001C Bytes, ...) - Data: 01 00 00 00 00 00 00 00 00 00 00 00 00 00 00 00 ... -- CPU_WriteMem(28 bytes @ 0xE0001000)  returns 0x1C (0001ms, 0591ms total)
T0B30 000:605 JLINK_ReadMem (0xE0001000, 0x001C Bytes, ...) -- CPU_ReadMem(28 bytes @ 0xE0001000) - Data: 01 00 00 40 00 00 00 00 00 00 00 00 00 00 00 00 ...  returns 0x00 (0001ms, 0592ms total)
T0B30 000:606 JLINK_ReadReg(R15 (PC))  returns 0x0800016C (0000ms, 0592ms total)
T0B30 000:606 JLINK_ReadReg(XPSR)  returns 0x01000000 (0000ms, 0592ms total)
T0B30 000:670 JLINK_SetResetType(JLINKARM_RESET_TYPE_NORMAL)  returns JLINKARM_RESET_TYPE_NORMAL (0000ms, 0592ms total)
T0B30 000:670 JLINK_Reset() -- CPU_WriteMem(4 bytes @ 0xE000EDF0) -- CPU_WriteMem(4 bytes @ 0xE000EDFC) >0x35 TIF> -- CPU_WriteMem(4 bytes @ 0xE000ED0C) -- CPU_ReadMem(4 bytes @ 0xE000EDF0) -- CPU_ReadMem(4 bytes @ 0xE000EDF0) -- CPU_WriteMem(4 bytes @ 0xE000EDF0) -- CPU_WriteMem(4 bytes @ 0xE000EDFC) -- CPU is running -- CPU_ReadMem(4 bytes @ 0xE000EDF0) -- CPU_WriteMem(4 bytes @ 0xE0002000) -- CPU_ReadMem(4 bytes @ 0xE000EDFC) -- CPU_ReadMem(4 bytes @ 0xE0001000) (0020ms, 0612ms total)
T0B30 000:690 JLINK_ReadReg(R15 (PC))  returns 0x0800016C (0000ms, 0612ms total)
T0B30 000:690 JLINK_ReadReg(XPSR)  returns 0x01000000 (0000ms, 0612ms total)
T0B30 000:690 JLINK_ReadMemU32(0xE0001004, 0x0001 Items, ...) -- CPU_ReadMem(4 bytes @ 0xE0001004) - Data: 8A 4A 00 00  returns 0x01 (0000ms, 0612ms total)
T0B30 000:793 JLINK_ReadMem (0x0800016C, 0x003C Bytes, ...) -- CPU_ReadMem(128 bytes @ 0x08000140) -- Updating C cache (128 bytes @ 0x08000140) -- Read from C cache (60 bytes @ 0x0800016C) - Data: 09 48 80 47 09 48 00 47 FE E7 FE E7 FE E7 FE E7 ...  returns 0x00 (0002ms, 0614ms total)
T0B30 001:222 JLINK_ReadMem (0x00000000, 0x007E Bytes, ...) -- CPU_ReadMem(4 bytes @ 0x00000004) -- CPU_ReadMem(128 bytes @ 0x08000000) -- Updating C cache (128 bytes @ 0x08000000) -- Read from C cache (126 bytes @ 0x08000000) - Data: 60 06 00 20 6D 01 00 08 4D 03 00 08 45 03 00 08 ...  returns 0x00 (0002ms, 0616ms total)
T0B30 001:473 JLINK_ReadMem (0x00000000, 0x00B4 Bytes, ...) -- CPU_ReadMem(64 bytes @ 0x08000080) -- Updating C cache (64 bytes @ 0x08000080) -- Read from C cache (180 bytes @ 0x08000000) - Data: 60 06 00 20 6D 01 00 08 4D 03 00 08 45 03 00 08 ...  returns 0x00 (0001ms, 0617ms total)
T6C44 001:703 JLINK_SetBPEx(Addr = 0x080008EC, Type = 0xFFFFFFF2)  returns 0x00000001 (0000ms, 0617ms total)
T6C44 001:703 JLINK_Go() -- CPU_WriteMem(4 bytes @ 0xE0002000) -- CPU_ReadMem(4 bytes @ 0xE0001000) -- CPU_WriteMem(4 bytes @ 0xE0002008) -- CPU_WriteMem(4 bytes @ 0xE000200C) -- CPU_WriteMem(4 bytes @ 0xE0002010) -- CPU_WriteMem(4 bytes @ 0xE0002014) -- CPU_WriteMem(4 bytes @ 0xE0002018) -- CPU_WriteMem(4 bytes @ 0xE000201C) -- CPU_WriteMem(4 bytes @ 0xE0001004) (0005ms, 0622ms total)
T6C44 001:810 JLINK_IsHalted()  returns TRUE (0003ms, 0625ms total)
T6C44 001:813 JLINK_Halt()  returns 0x00 (0000ms, 0622ms total)
T6C44 001:813 JLINK_IsHalted()  returns TRUE (0000ms, 0622ms total)
T6C44 001:813 JLINK_IsHalted()  returns TRUE (0000ms, 0622ms total)
T6C44 001:813 JLINK_IsHalted()  returns TRUE (0000ms, 0622ms total)
T6C44 001:813 JLINK_ReadReg(R15 (PC))  returns 0x080008EC (0000ms, 0622ms total)
T6C44 001:813 JLINK_ReadReg(XPSR)  returns 0x21000000 (0000ms, 0622ms total)
T6C44 001:813 JLINK_ClrBPEx(BPHandle = 0x00000001)  returns 0x00 (0000ms, 0622ms total)
T6C44 001:813 JLINK_ReadMemU32(0xE000ED30, 0x0001 Items, ...) -- CPU_ReadMem(4 bytes @ 0xE000ED30) - Data: 03 00 00 00  returns 0x01 (0000ms, 0622ms total)
T6C44 001:813 JLINK_ReadMemU32(0xE0001028, 0x0001 Items, ...) -- CPU_ReadMem(4 bytes @ 0xE0001028) - Data: 00 00 00 00  returns 0x01 (0001ms, 0623ms total)
T6C44 001:814 JLINK_ReadMemU32(0xE0001038, 0x0001 Items, ...) -- CPU_ReadMem(4 bytes @ 0xE0001038) - Data: 00 02 00 00  returns 0x01 (0001ms, 0624ms total)
T6C44 001:815 JLINK_ReadMemU32(0xE0001048, 0x0001 Items, ...) -- CPU_ReadMem(4 bytes @ 0xE0001048) - Data: 00 00 00 00  returns 0x01 (0000ms, 0624ms total)
T6C44 001:815 JLINK_ReadMemU32(0xE0001058, 0x0001 Items, ...) -- CPU_ReadMem(4 bytes @ 0xE0001058) - Data: 00 00 00 00  returns 0x01 (0001ms, 0625ms total)
T6C44 001:816 JLINK_ReadReg(R0)  returns 0x20000060 (0000ms, 0625ms total)
T6C44 001:816 JLINK_ReadReg(R1)  returns 0x20000260 (0000ms, 0625ms total)
T6C44 001:816 JLINK_ReadReg(R2)  returns 0x20000260 (0000ms, 0625ms total)
T6C44 001:816 JLINK_ReadReg(R3)  returns 0x20000260 (0000ms, 0625ms total)
T6C44 001:816 JLINK_ReadReg(R4)  returns 0x00000000 (0000ms, 0625ms total)
T6C44 001:816 JLINK_ReadReg(R5)  returns 0x20000000 (0000ms, 0625ms total)
T6C44 001:816 JLINK_ReadReg(R6)  returns 0x00000000 (0000ms, 0625ms total)
T6C44 001:816 JLINK_ReadReg(R7)  returns 0x00000000 (0000ms, 0625ms total)
T6C44 001:816 JLINK_ReadReg(R8)  returns 0x00000000 (0000ms, 0625ms total)
T6C44 001:816 JLINK_ReadReg(R9)  returns 0x20000160 (0000ms, 0625ms total)
T6C44 001:816 JLINK_ReadReg(R10)  returns 0x08000F58 (0000ms, 0625ms total)
T6C44 001:816 JLINK_ReadReg(R11)  returns 0x00000000 (0000ms, 0625ms total)
T6C44 001:816 JLINK_ReadReg(R12)  returns 0x20000040 (0000ms, 0625ms total)
T6C44 001:816 JLINK_ReadReg(R13 (SP))  returns 0x20000660 (0000ms, 0625ms total)
T6C44 001:816 JLINK_ReadReg(R14)  returns 0x0800015B (0000ms, 0625ms total)
T6C44 001:816 JLINK_ReadReg(R15 (PC))  returns 0x080008EC (0000ms, 0625ms total)
T6C44 001:816 JLINK_ReadReg(XPSR)  returns 0x21000000 (0000ms, 0625ms total)
T6C44 001:816 JLINK_ReadReg(MSP)  returns 0x20000660 (0000ms, 0625ms total)
T6C44 001:816 JLINK_ReadReg(PSP)  returns 0x20001000 (0000ms, 0625ms total)
T6C44 001:816 JLINK_ReadReg(CFBP)  returns 0x00000000 (0000ms, 0625ms total)
T0B30 001:818 JLINK_ReadMemU32(0xE0001004, 0x0001 Items, ...) -- CPU_ReadMem(4 bytes @ 0xE0001004) - Data: 78 20 00 00  returns 0x01 (0001ms, 0626ms total)
T0B30 001:823 JLINK_ReadMem (0x080008E8, 0x003C Bytes, ...) -- CPU_ReadMem(128 bytes @ 0x080008C0) -- Updating C cache (128 bytes @ 0x080008C0) -- Read from C cache (60 bytes @ 0x080008E8) - Data: 00 BF FE E7 FF F7 C4 FD FF F7 2D FD 41 22 01 21 ...  returns 0x00 (0002ms, 0628ms total)
T0B30 004:097 JLINK_SetResetType(JLINKARM_RESET_TYPE_NORMAL)  returns JLINKARM_RESET_TYPE_NORMAL (0000ms, 0628ms total)
T0B30 004:097 JLINK_Reset() -- CPU_WriteMem(4 bytes @ 0xE000EDF0) -- CPU_WriteMem(4 bytes @ 0xE000EDFC) >0x35 TIF> -- CPU_WriteMem(4 bytes @ 0xE000ED0C) -- CPU_ReadMem(4 bytes @ 0xE000EDF0) -- CPU_ReadMem(4 bytes @ 0xE000EDF0) -- CPU_WriteMem(4 bytes @ 0xE000EDF0) -- CPU_WriteMem(4 bytes @ 0xE000EDFC) -- CPU is running -- CPU_ReadMem(4 bytes @ 0xE000EDF0) -- CPU_WriteMem(4 bytes @ 0xE0002000) -- CPU_ReadMem(4 bytes @ 0xE000EDFC) -- CPU_ReadMem(4 bytes @ 0xE0001000) (0020ms, 0648ms total)
T0B30 004:117 JLINK_ReadReg(R15 (PC))  returns 0x0800016C (0000ms, 0648ms total)
T0B30 004:117 JLINK_ReadReg(XPSR)  returns 0x01000000 (0000ms, 0648ms total)
T0B30 004:117 JLINK_ReadMemU32(0xE0001004, 0x0001 Items, ...) -- CPU_ReadMem(4 bytes @ 0xE0001004) - Data: 01 6B 00 00  returns 0x01 (0001ms, 0649ms total)
T0B30 004:121 JLINK_ReadMem (0x080000EC, 0x003C Bytes, ...) -- CPU_ReadMem(128 bytes @ 0x080000C0) -- Updating C cache (128 bytes @ 0x080000C0) -- Read from C cache (60 bytes @ 0x080000EC) - Data: 00 F0 02 F8 00 F0 2C F8 0A A0 90 E8 00 0C 82 44 ...  returns 0x00 (0002ms, 0651ms total)
T0B30 004:123 JLINK_ReadMem (0x08000128, 0x003C Bytes, ...) -- CPU_ReadMem(64 bytes @ 0x08000140) -- Updating C cache (64 bytes @ 0x08000140) -- Read from C cache (60 bytes @ 0x08000128) - Data: 00 23 00 24 00 25 00 26 10 3A 28 BF 78 C1 FB D8 ...  returns 0x00 (0001ms, 0652ms total)
T0B30 004:124 JLINK_ReadMem (0x08000164, 0x003C Bytes, ...) -- CPU_ReadMem(64 bytes @ 0x08000180) -- Updating C cache (64 bytes @ 0x08000180) -- Read from C cache (60 bytes @ 0x08000164) - Data: 03 BC 00 F0 53 F8 00 00 09 48 80 47 09 48 00 47 ...  returns 0x00 (0002ms, 0654ms total)
T0B30 006:545 JLINK_SetResetType(JLINKARM_RESET_TYPE_NORMAL)  returns JLINKARM_RESET_TYPE_NORMAL (0000ms, 0654ms total)
T0B30 006:545 JLINK_Reset() -- CPU_WriteMem(4 bytes @ 0xE000EDF0) -- CPU_WriteMem(4 bytes @ 0xE000EDFC) >0x35 TIF> -- CPU_WriteMem(4 bytes @ 0xE000ED0C) -- CPU_ReadMem(4 bytes @ 0xE000EDF0) -- CPU_ReadMem(4 bytes @ 0xE000EDF0) -- CPU_WriteMem(4 bytes @ 0xE000EDF0) -- CPU_WriteMem(4 bytes @ 0xE000EDFC) -- CPU is running -- CPU_ReadMem(4 bytes @ 0xE000EDF0) -- CPU_WriteMem(4 bytes @ 0xE0002000) -- CPU_ReadMem(4 bytes @ 0xE000EDFC) -- CPU_ReadMem(4 bytes @ 0xE0001000) (0020ms, 0674ms total)
T0B30 006:565 JLINK_ReadReg(R15 (PC))  returns 0x0800016C (0000ms, 0674ms total)
T0B30 006:565 JLINK_ReadReg(XPSR)  returns 0x01000000 (0000ms, 0674ms total)
T0B30 006:565 JLINK_ReadMemU32(0xE0001004, 0x0001 Items, ...) -- CPU_ReadMem(4 bytes @ 0xE0001004) - Data: 09 B6 00 00  returns 0x01 (0000ms, 0674ms total)
T6C44 011:438 JLINK_Step() -- CPU_ReadMem(64 bytes @ 0x08000140) -- Updating C cache (64 bytes @ 0x08000140) -- Read from C cache (2 bytes @ 0x0800016C) -- CPU_ReadMem(4 bytes @ 0xE000ED18) -- CPU_WriteMem(4 bytes @ 0xE000ED18) -- CPU_ReadMem(4 bytes @ 0xE000ED18) -- CPU_WriteMem(4 bytes @ 0xE000ED18) -- CPU_ReadMem(64 bytes @ 0x08000180) -- Updating C cache (64 bytes @ 0x08000180) -- Read from C cache (4 bytes @ 0x08000194) -- Simulated  returns 0x00 (0005ms, 0679ms total)
T6C44 011:443 JLINK_ReadReg(R15 (PC))  returns 0x0800016E (0000ms, 0679ms total)
T6C44 011:443 JLINK_ReadReg(XPSR)  returns 0x01000000 (0000ms, 0679ms total)
T6C44 011:443 JLINK_ReadReg(R0)  returns 0x08000889 (0000ms, 0679ms total)
T6C44 011:443 JLINK_ReadReg(R1)  returns 0x20000260 (0000ms, 0679ms total)
T6C44 011:443 JLINK_ReadReg(R2)  returns 0x20000260 (0000ms, 0679ms total)
T6C44 011:443 JLINK_ReadReg(R3)  returns 0x20000260 (0000ms, 0679ms total)
T6C44 011:443 JLINK_ReadReg(R4)  returns 0x00000000 (0000ms, 0679ms total)
T6C44 011:443 JLINK_ReadReg(R5)  returns 0x20000000 (0000ms, 0679ms total)
T6C44 011:443 JLINK_ReadReg(R6)  returns 0x00000000 (0000ms, 0679ms total)
T6C44 011:443 JLINK_ReadReg(R7)  returns 0x00000000 (0000ms, 0679ms total)
T6C44 011:443 JLINK_ReadReg(R8)  returns 0x00000000 (0000ms, 0679ms total)
T6C44 011:443 JLINK_ReadReg(R9)  returns 0x20000160 (0000ms, 0679ms total)
T6C44 011:443 JLINK_ReadReg(R10)  returns 0x08000F58 (0000ms, 0679ms total)
T6C44 011:443 JLINK_ReadReg(R11)  returns 0x00000000 (0000ms, 0679ms total)
T6C44 011:443 JLINK_ReadReg(R12)  returns 0x20000040 (0000ms, 0679ms total)
T6C44 011:443 JLINK_ReadReg(R13 (SP))  returns 0x20000660 (0000ms, 0679ms total)
T6C44 011:443 JLINK_ReadReg(R14)  returns 0xFFFFFFFF (0000ms, 0679ms total)
T6C44 011:443 JLINK_ReadReg(R15 (PC))  returns 0x0800016E (0000ms, 0679ms total)
T6C44 011:443 JLINK_ReadReg(XPSR)  returns 0x01000000 (0000ms, 0679ms total)
T6C44 011:443 JLINK_ReadReg(MSP)  returns 0x20000660 (0000ms, 0679ms total)
T6C44 011:443 JLINK_ReadReg(PSP)  returns 0x20001000 (0000ms, 0679ms total)
T6C44 011:443 JLINK_ReadReg(CFBP)  returns 0x00000000 (0000ms, 0679ms total)
T0B30 011:446 JLINK_ReadMemU32(0xE0001004, 0x0001 Items, ...) - Data: 09 B6 00 00  returns 0x01 (0000ms, 0679ms total)
T0B30 011:455 JLINK_ReadMem (0x0800016A, 0x0002 Bytes, ...) -- Read from C cache (2 bytes @ 0x0800016A) - Data: 00 00  returns 0x00 (0000ms, 0679ms total)
T0B30 011:455 JLINK_ReadMem (0x0800016C, 0x003C Bytes, ...) -- Read from C cache (60 bytes @ 0x0800016C) - Data: 09 48 80 47 09 48 00 47 FE E7 FE E7 FE E7 FE E7 ...  returns 0x00 (0000ms, 0679ms total)
T6C44 013:094 JLINK_Step() -- Read from C cache (2 bytes @ 0x0800016E) -- Simulated  returns 0x00 (0000ms, 0679ms total)
T6C44 013:094 JLINK_ReadReg(R15 (PC))  returns 0x08000888 (0000ms, 0679ms total)
T6C44 013:094 JLINK_ReadReg(XPSR)  returns 0x01000000 (0000ms, 0679ms total)
T6C44 013:095 JLINK_ReadReg(R0)  returns 0x08000889 (0000ms, 0679ms total)
T6C44 013:095 JLINK_ReadReg(R1)  returns 0x20000260 (0000ms, 0679ms total)
T6C44 013:095 JLINK_ReadReg(R2)  returns 0x20000260 (0000ms, 0679ms total)
T6C44 013:095 JLINK_ReadReg(R3)  returns 0x20000260 (0000ms, 0679ms total)
T6C44 013:095 JLINK_ReadReg(R4)  returns 0x00000000 (0000ms, 0679ms total)
T6C44 013:095 JLINK_ReadReg(R5)  returns 0x20000000 (0000ms, 0679ms total)
T6C44 013:095 JLINK_ReadReg(R6)  returns 0x00000000 (0000ms, 0679ms total)
T6C44 013:095 JLINK_ReadReg(R7)  returns 0x00000000 (0000ms, 0679ms total)
T6C44 013:095 JLINK_ReadReg(R8)  returns 0x00000000 (0000ms, 0679ms total)
T6C44 013:095 JLINK_ReadReg(R9)  returns 0x20000160 (0000ms, 0679ms total)
T6C44 013:095 JLINK_ReadReg(R10)  returns 0x08000F58 (0000ms, 0679ms total)
T6C44 013:095 JLINK_ReadReg(R11)  returns 0x00000000 (0000ms, 0679ms total)
T6C44 013:095 JLINK_ReadReg(R12)  returns 0x20000040 (0000ms, 0679ms total)
T6C44 013:095 JLINK_ReadReg(R13 (SP))  returns 0x20000660 (0000ms, 0679ms total)
T6C44 013:095 JLINK_ReadReg(R14)  returns 0x08000171 (0000ms, 0679ms total)
T6C44 013:095 JLINK_ReadReg(R15 (PC))  returns 0x08000888 (0000ms, 0679ms total)
T6C44 013:095 JLINK_ReadReg(XPSR)  returns 0x01000000 (0000ms, 0679ms total)
T6C44 013:095 JLINK_ReadReg(MSP)  returns 0x20000660 (0000ms, 0679ms total)
T6C44 013:095 JLINK_ReadReg(PSP)  returns 0x20001000 (0000ms, 0679ms total)
T6C44 013:095 JLINK_ReadReg(CFBP)  returns 0x00000000 (0000ms, 0679ms total)
T0B30 013:100 JLINK_ReadMemU32(0xE0001004, 0x0001 Items, ...) - Data: 09 B6 00 00  returns 0x01 (0000ms, 0679ms total)
T0B30 013:106 JLINK_ReadMem (0x08000788, 0x003C Bytes, ...) -- CPU_ReadMem(128 bytes @ 0x08000780) -- Updating C cache (128 bytes @ 0x08000780) -- Read from C cache (60 bytes @ 0x08000788) - Data: 92 69 82 43 01 4B 9A 61 70 47 00 00 00 10 02 40 ...  returns 0x00 (0001ms, 0680ms total)
T0B30 013:107 JLINK_ReadMem (0x080007C4, 0x003C Bytes, ...) -- Read from C cache (60 bytes @ 0x080007C4) - Data: 01 98 40 1C 01 90 00 98 18 B9 01 98 B0 F5 A0 6F ...  returns 0x00 (0000ms, 0680ms total)
T0B30 013:107 JLINK_ReadMem (0x08000800, 0x003C Bytes, ...) -- CPU_ReadMem(64 bytes @ 0x08000800) -- Updating C cache (64 bytes @ 0x08000800) -- Read from C cache (60 bytes @ 0x08000800) - Data: 20 F0 03 00 08 60 08 46 00 68 40 F0 02 00 08 60 ...  returns 0x00 (0001ms, 0681ms total)
T0B30 013:108 JLINK_ReadMem (0x0800083C, 0x003C Bytes, ...) -- CPU_ReadMem(64 bytes @ 0x08000840) -- Updating C cache (64 bytes @ 0x08000840) -- Read from C cache (60 bytes @ 0x0800083C) - Data: 08 46 00 68 40 F0 80 70 08 60 00 BF 0C 48 00 68 ...  returns 0x00 (0001ms, 0682ms total)
T0B30 013:109 JLINK_ReadMem (0x08000878, 0x003C Bytes, ...) -- CPU_ReadMem(64 bytes @ 0x08000880) -- Updating C cache (64 bytes @ 0x08000880) -- Read from C cache (60 bytes @ 0x08000878) - Data: 0C BD 00 00 00 10 02 40 00 20 02 40 70 47 00 00 ...  returns 0x00 (0001ms, 0683ms total)
T6C44 013:830 JLINK_Step() -- Read from C cache (2 bytes @ 0x08000888) -- CPU_WriteMem(8 bytes @ 0x20000658) -- Simulated  returns 0x00 (0001ms, 0684ms total)
T6C44 013:831 JLINK_ReadReg(R15 (PC))  returns 0x0800088A (0000ms, 0684ms total)
T6C44 013:831 JLINK_ReadReg(XPSR)  returns 0x01000000 (0000ms, 0684ms total)
T6C44 013:831 JLINK_ReadReg(R0)  returns 0x08000889 (0000ms, 0684ms total)
T6C44 013:831 JLINK_ReadReg(R1)  returns 0x20000260 (0000ms, 0684ms total)
T6C44 013:831 JLINK_ReadReg(R2)  returns 0x20000260 (0000ms, 0684ms total)
T6C44 013:831 JLINK_ReadReg(R3)  returns 0x20000260 (0000ms, 0684ms total)
T6C44 013:831 JLINK_ReadReg(R4)  returns 0x00000000 (0000ms, 0684ms total)
T6C44 013:831 JLINK_ReadReg(R5)  returns 0x20000000 (0000ms, 0684ms total)
T6C44 013:831 JLINK_ReadReg(R6)  returns 0x00000000 (0000ms, 0684ms total)
T6C44 013:831 JLINK_ReadReg(R7)  returns 0x00000000 (0000ms, 0684ms total)
T6C44 013:831 JLINK_ReadReg(R8)  returns 0x00000000 (0000ms, 0684ms total)
T6C44 013:831 JLINK_ReadReg(R9)  returns 0x20000160 (0000ms, 0684ms total)
T6C44 013:831 JLINK_ReadReg(R10)  returns 0x08000F58 (0000ms, 0684ms total)
T6C44 013:831 JLINK_ReadReg(R11)  returns 0x00000000 (0000ms, 0684ms total)
T6C44 013:831 JLINK_ReadReg(R12)  returns 0x20000040 (0000ms, 0684ms total)
T6C44 013:831 JLINK_ReadReg(R13 (SP))  returns 0x20000658 (0000ms, 0684ms total)
T6C44 013:831 JLINK_ReadReg(R14)  returns 0x08000171 (0000ms, 0684ms total)
T6C44 013:831 JLINK_ReadReg(R15 (PC))  returns 0x0800088A (0000ms, 0684ms total)
T6C44 013:831 JLINK_ReadReg(XPSR)  returns 0x01000000 (0000ms, 0684ms total)
T6C44 013:831 JLINK_ReadReg(MSP)  returns 0x20000658 (0000ms, 0684ms total)
T6C44 013:831 JLINK_ReadReg(PSP)  returns 0x20001000 (0000ms, 0684ms total)
T6C44 013:831 JLINK_ReadReg(CFBP)  returns 0x00000000 (0000ms, 0684ms total)
T0B30 013:836 JLINK_ReadMem (0x2000065C, 0x0004 Bytes, ...) -- CPU_ReadMem(64 bytes @ 0x20000640) -- Updating C cache (64 bytes @ 0x20000640) -- Read from C cache (4 bytes @ 0x2000065C) - Data: 71 01 00 08  returns 0x00 (0001ms, 0685ms total)
T0B30 013:837 JLINK_ReadMem (0x20000658, 0x0004 Bytes, ...) -- Read from C cache (4 bytes @ 0x20000658) - Data: 00 00 00 00  returns 0x00 (0000ms, 0685ms total)
T0B30 013:837 JLINK_ReadMemU32(0xE0001004, 0x0001 Items, ...) - Data: 09 B6 00 00  returns 0x01 (0000ms, 0685ms total)
T0B30 013:842 JLINK_ReadMem (0x08000888, 0x003C Bytes, ...) -- CPU_ReadMem(64 bytes @ 0x080008C0) -- Updating C cache (64 bytes @ 0x080008C0) -- Read from C cache (60 bytes @ 0x08000888) - Data: 10 B5 13 48 00 68 40 F0 01 00 11 49 08 60 08 46 ...  returns 0x00 (0002ms, 0687ms total)
T6C44 014:619 JLINK_Step() -- Read from C cache (2 bytes @ 0x0800088A) -- Read from C cache (4 bytes @ 0x080008D8) -- Simulated  returns 0x00 (0000ms, 0687ms total)
T6C44 014:619 JLINK_ReadReg(R15 (PC))  returns 0x0800088C (0000ms, 0687ms total)
T6C44 014:619 JLINK_ReadReg(XPSR)  returns 0x01000000 (0000ms, 0687ms total)
T6C44 014:619 JLINK_ReadReg(R0)  returns 0x40021000 (0000ms, 0687ms total)
T6C44 014:619 JLINK_ReadReg(R1)  returns 0x20000260 (0000ms, 0687ms total)
T6C44 014:619 JLINK_ReadReg(R2)  returns 0x20000260 (0000ms, 0687ms total)
T6C44 014:619 JLINK_ReadReg(R3)  returns 0x20000260 (0000ms, 0687ms total)
T6C44 014:619 JLINK_ReadReg(R4)  returns 0x00000000 (0000ms, 0687ms total)
T6C44 014:619 JLINK_ReadReg(R5)  returns 0x20000000 (0000ms, 0687ms total)
T6C44 014:619 JLINK_ReadReg(R6)  returns 0x00000000 (0000ms, 0687ms total)
T6C44 014:619 JLINK_ReadReg(R7)  returns 0x00000000 (0000ms, 0687ms total)
T6C44 014:619 JLINK_ReadReg(R8)  returns 0x00000000 (0000ms, 0687ms total)
T6C44 014:619 JLINK_ReadReg(R9)  returns 0x20000160 (0000ms, 0687ms total)
T6C44 014:619 JLINK_ReadReg(R10)  returns 0x08000F58 (0000ms, 0687ms total)
T6C44 014:619 JLINK_ReadReg(R11)  returns 0x00000000 (0000ms, 0687ms total)
T6C44 014:619 JLINK_ReadReg(R12)  returns 0x20000040 (0000ms, 0687ms total)
T6C44 014:619 JLINK_ReadReg(R13 (SP))  returns 0x20000658 (0000ms, 0687ms total)
T6C44 014:619 JLINK_ReadReg(R14)  returns 0x08000171 (0000ms, 0687ms total)
T6C44 014:621 JLINK_ReadReg(R15 (PC))  returns 0x0800088C (0000ms, 0689ms total)
T6C44 014:621 JLINK_ReadReg(XPSR)  returns 0x01000000 (0000ms, 0689ms total)
T6C44 014:621 JLINK_ReadReg(MSP)  returns 0x20000658 (0000ms, 0689ms total)
T6C44 014:621 JLINK_ReadReg(PSP)  returns 0x20001000 (0000ms, 0689ms total)
T6C44 014:621 JLINK_ReadReg(CFBP)  returns 0x00000000 (0000ms, 0689ms total)
T0B30 014:622 JLINK_ReadMem (0x2000065C, 0x0004 Bytes, ...) -- Read from C cache (4 bytes @ 0x2000065C) - Data: 71 01 00 08  returns 0x00 (0000ms, 0689ms total)
T0B30 014:622 JLINK_ReadMem (0x20000658, 0x0004 Bytes, ...) -- Read from C cache (4 bytes @ 0x20000658) - Data: 00 00 00 00  returns 0x00 (0000ms, 0689ms total)
T0B30 014:622 JLINK_ReadMemU32(0xE0001004, 0x0001 Items, ...) - Data: 09 B6 00 00  returns 0x01 (0000ms, 0689ms total)
T6C44 015:414 JLINK_Step() -- Read from C cache (2 bytes @ 0x0800088C) -- Not simulated -- CPU_WriteMem(4 bytes @ 0xE0002008) -- CPU_WriteMem(4 bytes @ 0xE000200C) -- CPU_WriteMem(4 bytes @ 0xE0002010) -- CPU_WriteMem(4 bytes @ 0xE0002014) -- CPU_WriteMem(4 bytes @ 0xE0002018) -- CPU_WriteMem(4 bytes @ 0xE000201C) -- CPU_WriteMem(4 bytes @ 0xE0001004)  returns 0x00 (0008ms, 0697ms total)
T6C44 015:422 JLINK_ReadReg(R15 (PC))  returns 0x0800088E (0000ms, 0697ms total)
T6C44 015:422 JLINK_ReadReg(XPSR)  returns 0x01000000 (0000ms, 0697ms total)
T6C44 015:422 JLINK_ReadReg(R0)  returns 0x00005883 (0000ms, 0697ms total)
T6C44 015:422 JLINK_ReadReg(R1)  returns 0x20000260 (0000ms, 0697ms total)
T6C44 015:422 JLINK_ReadReg(R2)  returns 0x20000260 (0000ms, 0697ms total)
T6C44 015:422 JLINK_ReadReg(R3)  returns 0x20000260 (0000ms, 0697ms total)
T6C44 015:422 JLINK_ReadReg(R4)  returns 0x00000000 (0000ms, 0697ms total)
T6C44 015:422 JLINK_ReadReg(R5)  returns 0x20000000 (0000ms, 0697ms total)
T6C44 015:422 JLINK_ReadReg(R6)  returns 0x00000000 (0000ms, 0697ms total)
T6C44 015:422 JLINK_ReadReg(R7)  returns 0x00000000 (0000ms, 0697ms total)
T6C44 015:422 JLINK_ReadReg(R8)  returns 0x00000000 (0000ms, 0697ms total)
T6C44 015:422 JLINK_ReadReg(R9)  returns 0x20000160 (0000ms, 0697ms total)
T6C44 015:422 JLINK_ReadReg(R10)  returns 0x08000F58 (0000ms, 0697ms total)
T6C44 015:422 JLINK_ReadReg(R11)  returns 0x00000000 (0000ms, 0697ms total)
T6C44 015:422 JLINK_ReadReg(R12)  returns 0x20000040 (0000ms, 0697ms total)
T6C44 015:422 JLINK_ReadReg(R13 (SP))  returns 0x20000658 (0000ms, 0697ms total)
T6C44 015:422 JLINK_ReadReg(R14)  returns 0x08000171 (0000ms, 0697ms total)
T6C44 015:422 JLINK_ReadReg(R15 (PC))  returns 0x0800088E (0000ms, 0697ms total)
T6C44 015:422 JLINK_ReadReg(XPSR)  returns 0x01000000 (0000ms, 0697ms total)
T6C44 015:422 JLINK_ReadReg(MSP)  returns 0x20000658 (0000ms, 0697ms total)
T6C44 015:422 JLINK_ReadReg(PSP)  returns 0x20001000 (0000ms, 0697ms total)
T6C44 015:422 JLINK_ReadReg(CFBP)  returns 0x00000000 (0000ms, 0697ms total)
T0B30 015:423 JLINK_ReadMem (0x2000065C, 0x0004 Bytes, ...) -- CPU_ReadMem(64 bytes @ 0x20000640) -- Updating C cache (64 bytes @ 0x20000640) -- Read from C cache (4 bytes @ 0x2000065C) - Data: 71 01 00 08  returns 0x00 (0001ms, 0698ms total)
T0B30 015:424 JLINK_ReadMem (0x20000658, 0x0004 Bytes, ...) -- Read from C cache (4 bytes @ 0x20000658) - Data: 00 00 00 00  returns 0x00 (0000ms, 0698ms total)
T0B30 015:424 JLINK_ReadMemU32(0xE0001004, 0x0001 Items, ...) -- CPU_ReadMem(4 bytes @ 0xE0001004) - Data: 0B 00 00 00  returns 0x01 (0001ms, 0699ms total)
T0B30 015:432 JLINK_ReadMem (0x0800088E, 0x0002 Bytes, ...) -- CPU_ReadMem(64 bytes @ 0x08000880) -- Updating C cache (64 bytes @ 0x08000880) -- Read from C cache (2 bytes @ 0x0800088E) - Data: 40 F0  returns 0x00 (0002ms, 0701ms total)
T0B30 015:434 JLINK_ReadMem (0x08000890, 0x003C Bytes, ...) -- CPU_ReadMem(64 bytes @ 0x080008C0) -- Updating C cache (64 bytes @ 0x080008C0) -- Read from C cache (60 bytes @ 0x08000890) - Data: 01 00 11 49 08 60 08 46 40 68 10 49 08 40 0E 49 ...  returns 0x00 (0001ms, 0702ms total)
T6C44 016:146 JLINK_Step() -- Read from C cache (2 bytes @ 0x0800088E) -- Read from C cache (2 bytes @ 0x08000890) -- Simulated  returns 0x00 (0001ms, 0703ms total)
T6C44 016:147 JLINK_ReadReg(R15 (PC))  returns 0x08000892 (0000ms, 0703ms total)
T6C44 016:147 JLINK_ReadReg(XPSR)  returns 0x01000000 (0000ms, 0703ms total)
T6C44 016:147 JLINK_ReadReg(R0)  returns 0x00005883 (0000ms, 0703ms total)
T6C44 016:147 JLINK_ReadReg(R1)  returns 0x20000260 (0000ms, 0703ms total)
T6C44 016:147 JLINK_ReadReg(R2)  returns 0x20000260 (0000ms, 0703ms total)
T6C44 016:147 JLINK_ReadReg(R3)  returns 0x20000260 (0000ms, 0703ms total)
T6C44 016:147 JLINK_ReadReg(R4)  returns 0x00000000 (0000ms, 0703ms total)
T6C44 016:147 JLINK_ReadReg(R5)  returns 0x20000000 (0000ms, 0703ms total)
T6C44 016:147 JLINK_ReadReg(R6)  returns 0x00000000 (0000ms, 0703ms total)
T6C44 016:147 JLINK_ReadReg(R7)  returns 0x00000000 (0000ms, 0703ms total)
T6C44 016:147 JLINK_ReadReg(R8)  returns 0x00000000 (0000ms, 0703ms total)
T6C44 016:147 JLINK_ReadReg(R9)  returns 0x20000160 (0000ms, 0703ms total)
T6C44 016:147 JLINK_ReadReg(R10)  returns 0x08000F58 (0000ms, 0703ms total)
T6C44 016:147 JLINK_ReadReg(R11)  returns 0x00000000 (0000ms, 0703ms total)
T6C44 016:147 JLINK_ReadReg(R12)  returns 0x20000040 (0000ms, 0703ms total)
T6C44 016:147 JLINK_ReadReg(R13 (SP))  returns 0x20000658 (0000ms, 0703ms total)
T6C44 016:147 JLINK_ReadReg(R14)  returns 0x08000171 (0000ms, 0703ms total)
T6C44 016:147 JLINK_ReadReg(R15 (PC))  returns 0x08000892 (0000ms, 0703ms total)
T6C44 016:147 JLINK_ReadReg(XPSR)  returns 0x01000000 (0000ms, 0703ms total)
T6C44 016:147 JLINK_ReadReg(MSP)  returns 0x20000658 (0000ms, 0703ms total)
T6C44 016:147 JLINK_ReadReg(PSP)  returns 0x20001000 (0000ms, 0703ms total)
T6C44 016:147 JLINK_ReadReg(CFBP)  returns 0x00000000 (0000ms, 0703ms total)
T0B30 016:149 JLINK_ReadMem (0x2000065C, 0x0004 Bytes, ...) -- Read from C cache (4 bytes @ 0x2000065C) - Data: 71 01 00 08  returns 0x00 (0000ms, 0703ms total)
T0B30 016:149 JLINK_ReadMem (0x20000658, 0x0004 Bytes, ...) -- Read from C cache (4 bytes @ 0x20000658) - Data: 00 00 00 00  returns 0x00 (0000ms, 0703ms total)
T0B30 016:149 JLINK_ReadMemU32(0xE0001004, 0x0001 Items, ...) - Data: 0B 00 00 00  returns 0x01 (0000ms, 0703ms total)
T6C44 016:488 JLINK_Step() -- Read from C cache (2 bytes @ 0x08000892) -- Read from C cache (4 bytes @ 0x080008D8) -- Simulated  returns 0x00 (0000ms, 0703ms total)
T6C44 016:488 JLINK_ReadReg(R15 (PC))  returns 0x08000894 (0000ms, 0703ms total)
T6C44 016:488 JLINK_ReadReg(XPSR)  returns 0x01000000 (0001ms, 0704ms total)
T6C44 016:489 JLINK_ReadReg(R0)  returns 0x00005883 (0000ms, 0704ms total)
T6C44 016:489 JLINK_ReadReg(R1)  returns 0x40021000 (0000ms, 0704ms total)
T6C44 016:489 JLINK_ReadReg(R2)  returns 0x20000260 (0000ms, 0704ms total)
T6C44 016:489 JLINK_ReadReg(R3)  returns 0x20000260 (0000ms, 0704ms total)
T6C44 016:489 JLINK_ReadReg(R4)  returns 0x00000000 (0000ms, 0704ms total)
T6C44 016:489 JLINK_ReadReg(R5)  returns 0x20000000 (0000ms, 0704ms total)
T6C44 016:489 JLINK_ReadReg(R6)  returns 0x00000000 (0000ms, 0704ms total)
T6C44 016:489 JLINK_ReadReg(R7)  returns 0x00000000 (0000ms, 0704ms total)
T6C44 016:489 JLINK_ReadReg(R8)  returns 0x00000000 (0000ms, 0704ms total)
T6C44 016:489 JLINK_ReadReg(R9)  returns 0x20000160 (0000ms, 0704ms total)
T6C44 016:489 JLINK_ReadReg(R10)  returns 0x08000F58 (0000ms, 0704ms total)
T6C44 016:489 JLINK_ReadReg(R11)  returns 0x00000000 (0000ms, 0704ms total)
T6C44 016:489 JLINK_ReadReg(R12)  returns 0x20000040 (0000ms, 0704ms total)
T6C44 016:489 JLINK_ReadReg(R13 (SP))  returns 0x20000658 (0000ms, 0704ms total)
T6C44 016:489 JLINK_ReadReg(R14)  returns 0x08000171 (0000ms, 0704ms total)
T6C44 016:489 JLINK_ReadReg(R15 (PC))  returns 0x08000894 (0000ms, 0704ms total)
T6C44 016:489 JLINK_ReadReg(XPSR)  returns 0x01000000 (0000ms, 0704ms total)
T6C44 016:489 JLINK_ReadReg(MSP)  returns 0x20000658 (0000ms, 0704ms total)
T6C44 016:489 JLINK_ReadReg(PSP)  returns 0x20001000 (0000ms, 0704ms total)
T6C44 016:489 JLINK_ReadReg(CFBP)  returns 0x00000000 (0000ms, 0704ms total)
T0B30 016:490 JLINK_ReadMem (0x2000065C, 0x0004 Bytes, ...) -- Read from C cache (4 bytes @ 0x2000065C) - Data: 71 01 00 08  returns 0x00 (0000ms, 0704ms total)
T0B30 016:490 JLINK_ReadMem (0x20000658, 0x0004 Bytes, ...) -- Read from C cache (4 bytes @ 0x20000658) - Data: 00 00 00 00  returns 0x00 (0000ms, 0704ms total)
T0B30 016:490 JLINK_ReadMemU32(0xE0001004, 0x0001 Items, ...) - Data: 0B 00 00 00  returns 0x01 (0000ms, 0704ms total)
T6C44 016:756 JLINK_Step() -- Read from C cache (2 bytes @ 0x08000894) -- Not simulated -- CPU_WriteMem(4 bytes @ 0xE0001004)  returns 0x00 (0006ms, 0710ms total)
T6C44 016:762 JLINK_ReadReg(R15 (PC))  returns 0x08000896 (0000ms, 0710ms total)
T6C44 016:762 JLINK_ReadReg(XPSR)  returns 0x01000000 (0000ms, 0710ms total)
T6C44 016:762 JLINK_ReadReg(R0)  returns 0x00005883 (0000ms, 0710ms total)
T6C44 016:762 JLINK_ReadReg(R1)  returns 0x40021000 (0000ms, 0710ms total)
T6C44 016:762 JLINK_ReadReg(R2)  returns 0x20000260 (0000ms, 0710ms total)
T6C44 016:762 JLINK_ReadReg(R3)  returns 0x20000260 (0000ms, 0710ms total)
T6C44 016:762 JLINK_ReadReg(R4)  returns 0x00000000 (0000ms, 0710ms total)
T6C44 016:762 JLINK_ReadReg(R5)  returns 0x20000000 (0000ms, 0710ms total)
T6C44 016:762 JLINK_ReadReg(R6)  returns 0x00000000 (0000ms, 0710ms total)
T6C44 016:762 JLINK_ReadReg(R7)  returns 0x00000000 (0000ms, 0710ms total)
T6C44 016:762 JLINK_ReadReg(R8)  returns 0x00000000 (0001ms, 0711ms total)
T6C44 016:763 JLINK_ReadReg(R9)  returns 0x20000160 (0000ms, 0711ms total)
T6C44 016:763 JLINK_ReadReg(R10)  returns 0x08000F58 (0000ms, 0711ms total)
T6C44 016:763 JLINK_ReadReg(R11)  returns 0x00000000 (0000ms, 0711ms total)
T6C44 016:763 JLINK_ReadReg(R12)  returns 0x20000040 (0000ms, 0711ms total)
T6C44 016:763 JLINK_ReadReg(R13 (SP))  returns 0x20000658 (0000ms, 0711ms total)
T6C44 016:763 JLINK_ReadReg(R14)  returns 0x08000171 (0000ms, 0711ms total)
T6C44 016:763 JLINK_ReadReg(R15 (PC))  returns 0x08000896 (0000ms, 0711ms total)
T6C44 016:763 JLINK_ReadReg(XPSR)  returns 0x01000000 (0000ms, 0711ms total)
T6C44 016:763 JLINK_ReadReg(MSP)  returns 0x20000658 (0000ms, 0711ms total)
T6C44 016:763 JLINK_ReadReg(PSP)  returns 0x20001000 (0000ms, 0711ms total)
T6C44 016:763 JLINK_ReadReg(CFBP)  returns 0x00000000 (0000ms, 0711ms total)
T0B30 016:763 JLINK_ReadMem (0x2000065C, 0x0004 Bytes, ...) -- CPU_ReadMem(64 bytes @ 0x20000640) -- Updating C cache (64 bytes @ 0x20000640) -- Read from C cache (4 bytes @ 0x2000065C) - Data: 71 01 00 08  returns 0x00 (0001ms, 0712ms total)
T0B30 016:764 JLINK_ReadMem (0x20000658, 0x0004 Bytes, ...) -- Read from C cache (4 bytes @ 0x20000658) - Data: 00 00 00 00  returns 0x00 (0000ms, 0712ms total)
T0B30 016:764 JLINK_ReadMemU32(0xE0001004, 0x0001 Items, ...) -- CPU_ReadMem(4 bytes @ 0xE0001004) - Data: 0F 00 00 00  returns 0x01 (0000ms, 0712ms total)
T0B30 016:769 JLINK_ReadMem (0x0800088A, 0x0002 Bytes, ...) -- CPU_ReadMem(64 bytes @ 0x08000880) -- Updating C cache (64 bytes @ 0x08000880) -- Read from C cache (2 bytes @ 0x0800088A) - Data: 13 48  returns 0x00 (0001ms, 0713ms total)
T0B30 016:770 JLINK_ReadMem (0x0800088C, 0x003C Bytes, ...) -- CPU_ReadMem(64 bytes @ 0x080008C0) -- Updating C cache (64 bytes @ 0x080008C0) -- Read from C cache (60 bytes @ 0x0800088C) - Data: 00 68 40 F0 01 00 11 49 08 60 08 46 40 68 10 49 ...  returns 0x00 (0001ms, 0714ms total)
T6C44 017:226 JLINK_Step() -- Read from C cache (2 bytes @ 0x08000896) -- Simulated  returns 0x00 (0000ms, 0714ms total)
T6C44 017:226 JLINK_ReadReg(R15 (PC))  returns 0x08000898 (0000ms, 0714ms total)
T6C44 017:226 JLINK_ReadReg(XPSR)  returns 0x01000000 (0000ms, 0714ms total)
T6C44 017:226 JLINK_ReadReg(R0)  returns 0x40021000 (0000ms, 0714ms total)
T6C44 017:226 JLINK_ReadReg(R1)  returns 0x40021000 (0000ms, 0714ms total)
T6C44 017:226 JLINK_ReadReg(R2)  returns 0x20000260 (0000ms, 0714ms total)
T6C44 017:226 JLINK_ReadReg(R3)  returns 0x20000260 (0000ms, 0714ms total)
T6C44 017:226 JLINK_ReadReg(R4)  returns 0x00000000 (0000ms, 0714ms total)
T6C44 017:226 JLINK_ReadReg(R5)  returns 0x20000000 (0000ms, 0714ms total)
T6C44 017:226 JLINK_ReadReg(R6)  returns 0x00000000 (0000ms, 0714ms total)
T6C44 017:226 JLINK_ReadReg(R7)  returns 0x00000000 (0000ms, 0714ms total)
T6C44 017:226 JLINK_ReadReg(R8)  returns 0x00000000 (0000ms, 0714ms total)
T6C44 017:226 JLINK_ReadReg(R9)  returns 0x20000160 (0000ms, 0714ms total)
T6C44 017:226 JLINK_ReadReg(R10)  returns 0x08000F58 (0000ms, 0714ms total)
T6C44 017:226 JLINK_ReadReg(R11)  returns 0x00000000 (0000ms, 0714ms total)
T6C44 017:226 JLINK_ReadReg(R12)  returns 0x20000040 (0000ms, 0714ms total)
T6C44 017:226 JLINK_ReadReg(R13 (SP))  returns 0x20000658 (0000ms, 0714ms total)
T6C44 017:226 JLINK_ReadReg(R14)  returns 0x08000171 (0000ms, 0714ms total)
T6C44 017:226 JLINK_ReadReg(R15 (PC))  returns 0x08000898 (0000ms, 0714ms total)
T6C44 017:226 JLINK_ReadReg(XPSR)  returns 0x01000000 (0000ms, 0714ms total)
T6C44 017:226 JLINK_ReadReg(MSP)  returns 0x20000658 (0000ms, 0714ms total)
T6C44 017:226 JLINK_ReadReg(PSP)  returns 0x20001000 (0000ms, 0714ms total)
T6C44 017:226 JLINK_ReadReg(CFBP)  returns 0x00000000 (0000ms, 0714ms total)
T0B30 017:227 JLINK_ReadMem (0x2000065C, 0x0004 Bytes, ...) -- Read from C cache (4 bytes @ 0x2000065C) - Data: 71 01 00 08  returns 0x00 (0000ms, 0714ms total)
T0B30 017:227 JLINK_ReadMem (0x20000658, 0x0004 Bytes, ...) -- Read from C cache (4 bytes @ 0x20000658) - Data: 00 00 00 00  returns 0x00 (0000ms, 0714ms total)
T0B30 017:227 JLINK_ReadMemU32(0xE0001004, 0x0001 Items, ...) - Data: 0F 00 00 00  returns 0x01 (0000ms, 0714ms total)
T0B30 017:230 JLINK_ReadMem (0x08000898, 0x003C Bytes, ...) -- Read from C cache (60 bytes @ 0x08000898) - Data: 40 68 10 49 08 40 0E 49 48 60 08 46 00 68 0E 49 ...  returns 0x00 (0000ms, 0714ms total)
T6C44 017:518 JLINK_Step() -- Read from C cache (2 bytes @ 0x08000898) -- Not simulated -- CPU_WriteMem(4 bytes @ 0xE0001004)  returns 0x00 (0006ms, 0720ms total)
T6C44 017:524 JLINK_ReadReg(R15 (PC))  returns 0x0800089A (0000ms, 0720ms total)
T6C44 017:524 JLINK_ReadReg(XPSR)  returns 0x01000000 (0000ms, 0720ms total)
T6C44 017:524 JLINK_ReadReg(R0)  returns 0x00000000 (0000ms, 0720ms total)
T6C44 017:524 JLINK_ReadReg(R1)  returns 0x40021000 (0000ms, 0720ms total)
T6C44 017:524 JLINK_ReadReg(R2)  returns 0x20000260 (0000ms, 0720ms total)
T6C44 017:524 JLINK_ReadReg(R3)  returns 0x20000260 (0000ms, 0720ms total)
T6C44 017:524 JLINK_ReadReg(R4)  returns 0x00000000 (0000ms, 0720ms total)
T6C44 017:524 JLINK_ReadReg(R5)  returns 0x20000000 (0000ms, 0720ms total)
T6C44 017:524 JLINK_ReadReg(R6)  returns 0x00000000 (0000ms, 0720ms total)
T6C44 017:524 JLINK_ReadReg(R7)  returns 0x00000000 (0000ms, 0720ms total)
T6C44 017:524 JLINK_ReadReg(R8)  returns 0x00000000 (0001ms, 0721ms total)
T6C44 017:525 JLINK_ReadReg(R9)  returns 0x20000160 (0000ms, 0721ms total)
T6C44 017:525 JLINK_ReadReg(R10)  returns 0x08000F58 (0000ms, 0721ms total)
T6C44 017:525 JLINK_ReadReg(R11)  returns 0x00000000 (0000ms, 0721ms total)
T6C44 017:525 JLINK_ReadReg(R12)  returns 0x20000040 (0000ms, 0721ms total)
T6C44 017:525 JLINK_ReadReg(R13 (SP))  returns 0x20000658 (0000ms, 0721ms total)
T6C44 017:525 JLINK_ReadReg(R14)  returns 0x08000171 (0000ms, 0721ms total)
T6C44 017:525 JLINK_ReadReg(R15 (PC))  returns 0x0800089A (0000ms, 0721ms total)
T6C44 017:525 JLINK_ReadReg(XPSR)  returns 0x01000000 (0000ms, 0721ms total)
T6C44 017:525 JLINK_ReadReg(MSP)  returns 0x20000658 (0000ms, 0721ms total)
T6C44 017:525 JLINK_ReadReg(PSP)  returns 0x20001000 (0000ms, 0721ms total)
T6C44 017:525 JLINK_ReadReg(CFBP)  returns 0x00000000 (0000ms, 0721ms total)
T0B30 017:525 JLINK_ReadMem (0x2000065C, 0x0004 Bytes, ...) -- CPU_ReadMem(64 bytes @ 0x20000640) -- Updating C cache (64 bytes @ 0x20000640) -- Read from C cache (4 bytes @ 0x2000065C) - Data: 71 01 00 08  returns 0x00 (0001ms, 0722ms total)
T0B30 017:526 JLINK_ReadMem (0x20000658, 0x0004 Bytes, ...) -- Read from C cache (4 bytes @ 0x20000658) - Data: 00 00 00 00  returns 0x00 (0000ms, 0722ms total)
T0B30 017:526 JLINK_ReadMemU32(0xE0001004, 0x0001 Items, ...) -- CPU_ReadMem(4 bytes @ 0xE0001004) - Data: 13 00 00 00  returns 0x01 (0000ms, 0722ms total)
T6C44 017:759 JLINK_Step() -- CPU_ReadMem(64 bytes @ 0x08000880) -- Updating C cache (64 bytes @ 0x08000880) -- Read from C cache (2 bytes @ 0x0800089A) -- CPU_ReadMem(64 bytes @ 0x080008C0) -- Updating C cache (64 bytes @ 0x080008C0) -- Read from C cache (4 bytes @ 0x080008DC) -- Simulated  returns 0x00 (0002ms, 0724ms total)
T6C44 017:761 JLINK_ReadReg(R15 (PC))  returns 0x0800089C (0000ms, 0724ms total)
T6C44 017:761 JLINK_ReadReg(XPSR)  returns 0x01000000 (0000ms, 0724ms total)
T6C44 017:761 JLINK_ReadReg(R0)  returns 0x00000000 (0000ms, 0724ms total)
T6C44 017:761 JLINK_ReadReg(R1)  returns 0xF8FF0000 (0000ms, 0724ms total)
T6C44 017:761 JLINK_ReadReg(R2)  returns 0x20000260 (0000ms, 0724ms total)
T6C44 017:761 JLINK_ReadReg(R3)  returns 0x20000260 (0000ms, 0724ms total)
T6C44 017:761 JLINK_ReadReg(R4)  returns 0x00000000 (0000ms, 0724ms total)
T6C44 017:761 JLINK_ReadReg(R5)  returns 0x20000000 (0000ms, 0724ms total)
T6C44 017:761 JLINK_ReadReg(R6)  returns 0x00000000 (0000ms, 0724ms total)
T6C44 017:761 JLINK_ReadReg(R7)  returns 0x00000000 (0000ms, 0724ms total)
T6C44 017:761 JLINK_ReadReg(R8)  returns 0x00000000 (0000ms, 0724ms total)
T6C44 017:761 JLINK_ReadReg(R9)  returns 0x20000160 (0000ms, 0724ms total)
T6C44 017:761 JLINK_ReadReg(R10)  returns 0x08000F58 (0000ms, 0724ms total)
T6C44 017:761 JLINK_ReadReg(R11)  returns 0x00000000 (0000ms, 0724ms total)
T6C44 017:761 JLINK_ReadReg(R12)  returns 0x20000040 (0000ms, 0724ms total)
T6C44 017:761 JLINK_ReadReg(R13 (SP))  returns 0x20000658 (0000ms, 0724ms total)
T6C44 017:761 JLINK_ReadReg(R14)  returns 0x08000171 (0000ms, 0724ms total)
T6C44 017:761 JLINK_ReadReg(R15 (PC))  returns 0x0800089C (0000ms, 0724ms total)
T6C44 017:761 JLINK_ReadReg(XPSR)  returns 0x01000000 (0000ms, 0724ms total)
T6C44 017:761 JLINK_ReadReg(MSP)  returns 0x20000658 (0000ms, 0724ms total)
T6C44 017:761 JLINK_ReadReg(PSP)  returns 0x20001000 (0000ms, 0724ms total)
T6C44 017:761 JLINK_ReadReg(CFBP)  returns 0x00000000 (0000ms, 0724ms total)
T0B30 017:766 JLINK_ReadMem (0x2000065C, 0x0004 Bytes, ...) -- Read from C cache (4 bytes @ 0x2000065C) - Data: 71 01 00 08  returns 0x00 (0000ms, 0724ms total)
T0B30 017:766 JLINK_ReadMem (0x20000658, 0x0004 Bytes, ...) -- Read from C cache (4 bytes @ 0x20000658) - Data: 00 00 00 00  returns 0x00 (0000ms, 0724ms total)
T0B30 017:766 JLINK_ReadMemU32(0xE0001004, 0x0001 Items, ...) - Data: 13 00 00 00  returns 0x01 (0000ms, 0724ms total)
T6C44 018:023 JLINK_Step() -- Read from C cache (2 bytes @ 0x0800089C) -- Simulated  returns 0x00 (0000ms, 0724ms total)
T6C44 018:023 JLINK_ReadReg(R15 (PC))  returns 0x0800089E (0000ms, 0724ms total)
T6C44 018:023 JLINK_ReadReg(XPSR)  returns 0x41000000 (0000ms, 0724ms total)
T6C44 018:023 JLINK_ReadReg(R0)  returns 0x00000000 (0000ms, 0724ms total)
T6C44 018:023 JLINK_ReadReg(R1)  returns 0xF8FF0000 (0000ms, 0724ms total)
T6C44 018:023 JLINK_ReadReg(R2)  returns 0x20000260 (0000ms, 0724ms total)
T6C44 018:023 JLINK_ReadReg(R3)  returns 0x20000260 (0000ms, 0724ms total)
T6C44 018:023 JLINK_ReadReg(R4)  returns 0x00000000 (0000ms, 0724ms total)
T6C44 018:023 JLINK_ReadReg(R5)  returns 0x20000000 (0000ms, 0724ms total)
T6C44 018:023 JLINK_ReadReg(R6)  returns 0x00000000 (0000ms, 0724ms total)
T6C44 018:023 JLINK_ReadReg(R7)  returns 0x00000000 (0000ms, 0724ms total)
T6C44 018:023 JLINK_ReadReg(R8)  returns 0x00000000 (0000ms, 0724ms total)
T6C44 018:023 JLINK_ReadReg(R9)  returns 0x20000160 (0000ms, 0724ms total)
T6C44 018:023 JLINK_ReadReg(R10)  returns 0x08000F58 (0000ms, 0724ms total)
T6C44 018:023 JLINK_ReadReg(R11)  returns 0x00000000 (0000ms, 0724ms total)
T6C44 018:024 JLINK_ReadReg(R12)  returns 0x20000040 (0000ms, 0724ms total)
T6C44 018:024 JLINK_ReadReg(R13 (SP))  returns 0x20000658 (0000ms, 0724ms total)
T6C44 018:024 JLINK_ReadReg(R14)  returns 0x08000171 (0000ms, 0724ms total)
T6C44 018:024 JLINK_ReadReg(R15 (PC))  returns 0x0800089E (0000ms, 0724ms total)
T6C44 018:024 JLINK_ReadReg(XPSR)  returns 0x41000000 (0000ms, 0724ms total)
T6C44 018:024 JLINK_ReadReg(MSP)  returns 0x20000658 (0000ms, 0724ms total)
T6C44 018:024 JLINK_ReadReg(PSP)  returns 0x20001000 (0000ms, 0724ms total)
T6C44 018:024 JLINK_ReadReg(CFBP)  returns 0x00000000 (0000ms, 0724ms total)
T0B30 018:025 JLINK_ReadMem (0x2000065C, 0x0004 Bytes, ...) -- Read from C cache (4 bytes @ 0x2000065C) - Data: 71 01 00 08  returns 0x00 (0000ms, 0724ms total)
T0B30 018:025 JLINK_ReadMem (0x20000658, 0x0004 Bytes, ...) -- Read from C cache (4 bytes @ 0x20000658) - Data: 00 00 00 00  returns 0x00 (0000ms, 0724ms total)
T0B30 018:025 JLINK_ReadMemU32(0xE0001004, 0x0001 Items, ...) - Data: 13 00 00 00  returns 0x01 (0000ms, 0724ms total)
T6C44 018:249 JLINK_Step() -- Read from C cache (2 bytes @ 0x0800089E) -- Read from C cache (4 bytes @ 0x080008D8) -- Simulated  returns 0x00 (0000ms, 0724ms total)
T6C44 018:249 JLINK_ReadReg(R15 (PC))  returns 0x080008A0 (0000ms, 0724ms total)
T6C44 018:249 JLINK_ReadReg(XPSR)  returns 0x41000000 (0000ms, 0724ms total)
T6C44 018:249 JLINK_ReadReg(R0)  returns 0x00000000 (0000ms, 0724ms total)
T6C44 018:249 JLINK_ReadReg(R1)  returns 0x40021000 (0002ms, 0726ms total)
T6C44 018:251 JLINK_ReadReg(R2)  returns 0x20000260 (0000ms, 0726ms total)
T6C44 018:251 JLINK_ReadReg(R3)  returns 0x20000260 (0000ms, 0726ms total)
T6C44 018:251 JLINK_ReadReg(R4)  returns 0x00000000 (0000ms, 0726ms total)
T6C44 018:251 JLINK_ReadReg(R5)  returns 0x20000000 (0000ms, 0726ms total)
T6C44 018:251 JLINK_ReadReg(R6)  returns 0x00000000 (0000ms, 0726ms total)
T6C44 018:251 JLINK_ReadReg(R7)  returns 0x00000000 (0000ms, 0726ms total)
T6C44 018:251 JLINK_ReadReg(R8)  returns 0x00000000 (0000ms, 0726ms total)
T6C44 018:251 JLINK_ReadReg(R9)  returns 0x20000160 (0000ms, 0726ms total)
T6C44 018:251 JLINK_ReadReg(R10)  returns 0x08000F58 (0000ms, 0726ms total)
T6C44 018:251 JLINK_ReadReg(R11)  returns 0x00000000 (0000ms, 0726ms total)
